<Qucs Dataset 0.0.19>
<indep time 10>
  +1.00000000000000002092e-008
  +1.01111111111111112124e-008
  +1.02222222222222222155e-008
  +1.03333333333333332187e-008
  +1.04444444444444442218e-008
  +1.05555555555555568793e-008
  +1.06666666666666678825e-008
  +1.07777777777777788856e-008
  +1.08888888888888898887e-008
  +1.10000000000000008919e-008
</indep>
<dep Pr2.Vt time>
  -1.47333134196939077171e-004
  -1.61243994670437311434e-004
  -1.74807844647109465611e-004
  -1.87932783512688244242e-004
  -2.00526156295115437836e-004
  -2.12495503833678138104e-004
  -2.23748809108160800953e-004
  -2.34195654050251976692e-004
  -2.43746396378100217304e-004
  -2.52314210948063443862e-004
</dep>
<dep V1.It time>
  -1.98138637691744022573e-002
  -1.98138638366151982606e-002
  -1.98138639408770508843e-002
  -1.98138640826081326163e-002
  -1.98138642622578756147e-002
  -1.98138644800675486901e-002
  -1.98138647360617745075e-002
  -1.98138650300411292560e-002
  -1.98138653615754084525e-002
  -1.98138657299986448157e-002
</dep>
<dep Pr1.It time>
  -2.94666268395548528724e-006
  -3.22487989342607371063e-006
  -3.49615689294041281308e-006
  -3.75865567025416963105e-006
  -4.01052312589208652594e-006
  -4.24991007668075898460e-006
  -4.47497618216324329353e-006
  -4.68391308101636602454e-006
  -4.87492792756392985526e-006
  -5.04628421895279475305e-006
</dep>
<dep _net0.Vt time>
  +2.67458498046051085240e+000
  +2.67458470378123358557e+000
  +2.67458425763239526773e+000
  +2.67458363886506100826e+000
  +2.67458284524018141681e+000
  +2.67458187547300019204e+000
  +2.67458072927308476707e+000
  +2.67457940737917487795e+000
  +2.67457791159033586581e+000
  +2.67457624479122157979e+000
</dep>
<dep _net1.Vt time>
  +1.19998526647552683499e+001
  +1.19998387504657344493e+001
  +1.19998251828812936282e+001
  +1.19998120539112509420e+001
  +1.19997994562214600478e+001
  +1.19997874822838586084e+001
  +1.19997762241304055664e+001
  +1.19997657721959694044e+001
  +1.19997562161418098725e+001
  +1.19997476428139471238e+001
</dep>
<dep CARGA.Vt time>
  -1.47333134196939077171e-004
  -1.61243994670437311434e-004
  -1.74807844647109465611e-004
  -1.87932783512688244242e-004
  -2.00526156295115437836e-004
  -2.12495503833678138104e-004
  -2.23748809108160800953e-004
  -2.34195654050251976692e-004
  -2.43746396378100217304e-004
  -2.52314210948063443862e-004
</dep>
<dep _net4.Vt time>
  -1.47333134196939077171e-004
  -1.61243994670437311434e-004
  -1.74807844647109465611e-004
  -1.87932783512688244242e-004
  -2.00526156295115437836e-004
  -2.12495503833678138104e-004
  -2.23748809108160800953e-004
  -2.34195654050251976692e-004
  -2.43746396378100217304e-004
  -2.52314210948063443862e-004
</dep>
<dep _net5.Vt time>
  +1.20001208997333872475e+001
  +1.20001231967348918062e+001
  +1.20001247164807764989e+001
  +1.20001254236021477340e+001
  +1.20001252863145193572e+001
  +1.20001242767273001988e+001
  +1.20001223711415860862e+001
  +1.20001195503311599566e+001
  +1.20001157998090022261e+001
  +1.20001111100744548565e+001
</dep>
<dep _net3.Vt time>
  +1.20000000000000000000e+001
  +1.20000000000000000000e+001
  +1.20000000000000000000e+001
  +1.20000000000000000000e+001
  +1.20000000000000000000e+001
  +1.20000000000000000000e+001
  +1.20000000000000000000e+001
  +1.20000000000000000000e+001
  +1.20000000000000000000e+001
  +1.20000000000000000000e+001
</dep>
<dep _net2.Vt time>
  +1.80308327652928968021e+000
  +1.80308328787685878680e+000
  +1.80308329943075684731e+000
  +1.80308331113269315615e+000
  +1.80308332292156547894e+000
  +1.80308333473361637189e+000
  +1.80308334650277757305e+000
  +1.80308335816100995252e+000
  +1.80308336963856818969e+000
  +1.80308338086439468029e+000
</dep>
<indep Pr2.V 1>
  +0.00000000000000000000e+000
</indep>
<indep V1.I 1>
  -1.98138698052486295076e-002
</indep>
<indep Pr1.I 1>
  +0.00000000000000000000e+000
</indep>
<indep _net0.V 1>
  +2.67455658584238920028e+000
</indep>
<indep _net1.V 1>
  +1.20000000000000000000e+001
</indep>
<indep CARGA.V 1>
  +0.00000000000000000000e+000
</indep>
<indep _net4.V 1>
  +0.00000000000000000000e+000
</indep>
<indep _net5.V 1>
  +1.20000000000000000000e+001
</indep>
<indep _net3.V 1>
  +1.20000000000000000000e+001
</indep>
<indep _net2.V 1>
  +1.80308320813537603655e+000
</indep>
